/afe_in X,/afe_in Y,/label X,/label Y,/afe_out X,/afe_out Y,/spk_up X,/spk_up Y,/elec_in X,/elec_in Y,/spk_down X,/spk_down Y
51.40332031,0.002270198,51.40332031,0,51.37109375,0.891285301,51.37109375,4.11E-05,51.37109375,0.002260742,51.37109375,4.31E-05
51.40722656,0.002269907,51.40722656,0,51.375,0.889207053,51.375,-6.83E-06,51.375,0.0022622,51.375,-7.26E-06
51.41113281,0.002269253,51.41113281,0,51.37890625,0.887168236,51.37890625,-4.73E-06,51.37890625,0.00226391,51.37890625,-5.01E-06
51.41503906,0.002268328,51.41503906,0,51.3828125,0.88498151,51.3828125,-3.12E-06,51.3828125,0.002265652,51.3828125,-3.31E-06
51.41992188,0.002267172,51.41992188,0,51.38671875,0.882954784,51.38671875,-1.28E-05,51.38671875,0.002267234,51.38671875,-1.35E-05
51.42382813,0.00226577,51.42382813,0,51.390625,0.881297872,51.390625,3.49E-06,51.390625,0.002268517,51.390625,3.73E-06
51.42773438,0.002264157,51.42773438,0,51.39453125,0.880145433,51.39453125,-5.88E-06,51.39453125,0.002269429,51.39453125,-6.29E-06
51.43164063,0.002262441,51.43164063,0,51.3984375,0.879525373,51.3984375,1.07E-05,51.3984375,0.00226998,51.3984375,1.10E-05
51.43554688,0.002260694,51.43554688,0,51.40234375,0.87941712,51.40234375,9.27E-06,51.40234375,0.002270172,51.40234375,9.88E-06
51.43945313,0.002258908,51.43945313,0,51.40625,0.879828224,51.40625,1.78E-05,51.40625,0.00226998,51.40625,1.91E-05
51.44335938,0.002257103,51.44335938,0,51.41015625,0.880757057,51.41015625,1.67E-05,51.41015625,0.002269417,51.41015625,1.76E-05
51.44726563,0.00225537,51.44726563,0,51.4140625,0.882125588,51.4140625,-6.66E-06,51.4140625,0.00226856,51.4140625,-6.98E-06
51.45117188,0.002253787,51.45117188,0,51.41796875,0.883713986,51.41796875,1.34E-05,51.41796875,0.002267635,51.41796875,1.43E-05
51.45507813,0.002252354,51.45507813,0,51.421875,0.885427653,51.421875,1.00E-05,51.421875,0.002266471,51.421875,1.07E-05
51.45996094,0.002251068,51.45996094,0,51.42578125,0.887598298,51.42578125,3.25E-06,51.42578125,0.002264964,51.42578125,3.48E-06
51.46386719,0.002249992,51.46386719,0,51.4296875,0.890029574,51.4296875,1.98E-06,51.4296875,0.002263299,51.4296875,2.10E-06
51.46777344,0.002249175,51.46777344,0,51.43359375,0.892558656,51.43359375,9.39E-08,51.43359375,0.002261567,51.43359375,7.32E-08
51.47167969,0.002248576,51.47167969,0,51.4375,0.895095381,51.4375,-5.67E-06,51.4375,0.002259801,51.4375,-6.03E-06
51.47558594,0.002248132,51.47558594,0,51.44140625,0.897623396,51.44140625,-3.35E-06,51.44140625,0.002258006,51.44140625,-3.53E-06
51.47949219,0.002247847,51.47949219,0,51.4453125,0.900102079,51.4453125,-1.01E-05,51.4453125,0.002256236,51.4453125,-1.08E-05
51.48339844,0.002247735,51.48339844,0,51.44921875,0.902424012,51.44921875,3.04E-07,51.44921875,0.002254578,51.44921875,3.23E-07
51.48730469,0.00224772,51.48730469,0,51.453125,0.90449807,51.453125,-1.29E-05,51.453125,0.002253071,51.453125,-1.31E-05
51.49121094,0.00224767,51.49121094,0,51.45703125,0.90625699,51.45703125,-4.83E-07,51.45703125,0.00225184,51.45703125,-5.08E-07
51.49511719,0.002247502,51.49511719,0,51.4609375,0.907579601,51.4609375,-1.57E-06,51.4609375,0.002250799,51.4609375,-1.69E-06
51.49902344,0.002247157,51.49902344,0,51.46484375,0.908820171,51.46484375,3.13E-07,51.46484375,0.002249788,51.46484375,3.30E-07
51.50390625,0.002246498,51.50390625,0,51.46875,0.909769775,51.46875,-1.05E-05,51.46875,0.002249025,51.46875,-1.11E-05
51.5078125,0.002245333,51.5078125,0,51.47265625,0.910398307,51.47265625,-1.45E-05,51.47265625,0.002248465,51.47265625,-1.53E-05
51.51171875,0.002243529,51.51171875,0,51.4765625,0.910773745,51.4765625,1.55E-05,51.4765625,0.002248061,51.4765625,1.66E-05
51.515625,0.002241021,51.515625,0,51.48046875,0.910918386,51.48046875,-2.96E-06,51.48046875,0.002247819,51.48046875,-3.19E-06
51.51953125,0.002237717,51.51953125,0,51.484375,0.910829293,51.484375,-5.32E-06,51.484375,0.002247731,51.484375,-5.66E-06
51.5234375,0.00223349,51.5234375,0,51.48828125,0.910590988,51.48828125,-3.43E-06,51.48828125,0.002247707,51.48828125,-3.65E-06
51.52734375,0.002228296,51.52734375,0,51.4921875,0.910361565,51.4921875,-2.12E-05,51.4921875,0.002247628,51.4921875,-2.29E-05
51.53125,0.00222222,51.53125,2,51.49609375,0.910269156,51.49609375,-5.19E-06,51.49609375,0.002247416,51.49609375,-5.43E-06
51.53515625,0.002215389,51.53515625,2,51.5,0.910400089,51.5,1.40E-05,51.5,0.002247025,51.5,1.43E-05
51.5390625,0.002207947,51.5390625,2,51.50390625,0.910762325,51.50390625,-3.52E-06,51.50390625,0.002246495,51.50390625,-3.48E-06
51.54394531,0.002200134,51.54394531,2,51.5078125,0.911687922,51.5078125,-8.86E-06,51.5078125,0.002245333,51.5078125,-9.41E-06
51.54785156,0.002192322,51.54785156,2,51.51171875,0.913439945,51.51171875,4.19E-07,51.51171875,0.002243527,51.51171875,4.43E-07
51.55175781,0.002184893,51.55175781,2,51.515625,0.916087192,51.515625,-1.88E-06,51.515625,0.002241019,51.515625,-2.45E-06
51.55566406,0.002178139,51.55566406,2,51.51953125,0.919720547,51.51953125,1.09E-05,51.51953125,0.002237715,51.51953125,1.14E-05
51.55957031,0.002172314,51.55957031,2,51.5234375,0.924475542,51.5234375,-2.14E-06,51.5234375,0.00223347,51.5234375,-2.28E-06
51.56347656,0.002167693,51.56347656,2,51.52734375,0.930424498,51.52734375,-8.63E-06,51.52734375,0.002228292,51.52734375,-9.25E-06
51.56738281,0.002164488,51.56738281,2,51.53125,0.937512693,51.53125,-4.39E-06,51.53125,0.002222219,51.53125,-4.73E-06
51.57128906,0.002162761,51.57128906,2,51.53515625,0.945569384,51.53515625,4.81E-06,51.53515625,0.002215389,51.53515625,5.12E-06
51.57519531,0.002162486,51.57519531,0,51.5390625,0.954397642,51.5390625,6.04E-06,51.5390625,0.002207947,51.5390625,6.43E-06
51.57910156,0.00216365,51.57910156,0,51.54296875,0.962438742,51.54296875,-4.89E-06,51.54296875,0.002201696,51.54296875,-5.15E-06
51.58398438,0.002166221,51.58398438,0,51.546875,0.970502545,51.546875,1.800024805,51.546875,0.002194275,51.546875,-9.91E-06
51.58789063,0.002170053,51.58789063,0,51.55078125,0.979325048,51.55078125,-3.54E-05,51.55078125,0.00218675,51.55078125,-0.000294559
51.59179688,0.002174929,51.59179688,0,51.5546875,0.987488919,51.5546875,-1.97E-06,51.5546875,0.002179827,51.5546875,-2.10E-06
51.59570313,0.002180666,51.59570313,0,51.55859375,0.994448665,51.55859375,-7.08E-06,51.55859375,0.00217377,51.55859375,-7.54E-06
51.59960938,0.002187098,51.59960938,0,51.5625,0.999851422,51.5625,-4.26E-05,51.5625,0.002168848,51.5625,-4.58E-05
51.60351563,0.002193985,51.60351563,0,51.56640625,1.00340222,51.56640625,-1.65E-06,51.56640625,0.002165289,51.56640625,-2.27E-06
51.60742188,0.002201034,51.60742188,0,51.5703125,1.004913186,51.5703125,1.35E-05,51.5703125,0.002163193,51.5703125,1.44E-05
51.61132813,0.002208021,51.61132813,0,51.57421875,1.004365891,51.57421875,1.38E-06,51.57421875,0.002162554,51.57421875,1.47E-06
51.61523438,0.002214806,51.61523438,0,51.578125,1.001816268,51.578125,5.19E-07,51.578125,0.002163359,51.578125,4.58E-07
51.61914063,0.002221236,51.61914063,0,51.58203125,0.997596209,51.58203125,1.26E-05,51.58203125,0.002165193,51.58203125,1.35E-05
51.62304688,0.002227127,51.62304688,0,51.5859375,0.992149877,51.5859375,6.20E-07,51.5859375,0.002168137,51.5859375,6.51E-07
51.62792969,0.002232365,51.62792969,0,51.58984375,0.984803737,51.58984375,2.43E-06,51.58984375,0.002172491,51.58984375,2.60E-06
51.63183594,0.002236928,51.63183594,0,51.59375,0.976090752,51.59375,-6.20E-06,51.59375,0.002177798,51.59375,-6.52E-06
51.63574219,0.002240784,51.63574219,0,51.59765625,0.966367481,51.59765625,1.19E-05,51.59765625,0.002183882,51.59765625,1.28E-05
51.63964844,0.002243853,51.63964844,0,51.6015625,0.955912736,51.6015625,-1.13E-05,51.6015625,0.002190541,51.6015625,-1.21E-05
51.64355469,0.002246106,51.64355469,0,51.60546875,0.94508178,51.60546875,5.39E-06,51.60546875,0.002197509,51.60546875,5.66E-06
51.64746094,0.002247635,51.64746094,0,51.609375,0.934257673,51.609375,-7.65E-06,51.609375,0.002204528,51.609375,-8.08E-06
51.65136719,0.002248558,51.65136719,0,51.61328125,0.923747,51.61328125,-1.50E-06,51.61328125,0.002211414,51.61328125,1.799995906
51.65527344,0.002248939,51.65527344,0,51.6171875,0.913774312,51.6171875,3.08E-06,51.6171875,0.002218021,51.6171875,-4.37E-05
51.65917969,0.002248844,51.65917969,0,51.62109375,0.90450424,51.62109375,-3.31E-06,51.62109375,0.002224181,51.62109375,-3.47E-06
51.66308594,0.002248417,51.66308594,0,51.625,0.896469845,51.625,-1.40E-05,51.625,0.002229222,51.625,-1.49E-05
51.66796875,0.002247805,51.66796875,0,51.62890625,0.890251302,51.62890625,8.94E-06,51.62890625,0.002233506,51.62890625,9.52E-06
51.671875,0.002247069,51.671875,0,51.6328125,0.884202993,51.6328125,1.48E-05,51.6328125,0.002237892,51.6328125,1.55E-05
51.67578125,0.002246226,51.67578125,0,51.63671875,0.87896064,51.63671875,-3.75E-05,51.63671875,0.002241552,51.63671875,-3.93E-05
51.6796875,0.002245352,51.6796875,0,51.640625,0.874862282,51.640625,3.41E-05,51.640625,0.002244417,51.640625,3.57E-05
51.68359375,0.002244542,51.68359375,0,51.64453125,0.871965381,51.64453125,2.44E-07,51.64453125,0.002246489,51.64453125,1.73E-06
51.6875,0.002243809,51.6875,0,51.6484375,0.870173,51.6484375,-1.48E-07,51.6484375,0.002247866,51.6484375,1.799996404
51.69140625,0.002243127,51.69140625,0,51.65234375,0.869265714,51.65234375,-2.35E-05,51.65234375,0.002248654,51.65234375,0.000312039
51.6953125,0.00224254,51.6953125,0,51.65625,0.869197511,51.65625,2.64E-07,51.65625,0.002248916,51.65625,2.85E-07
51.69921875,0.002242144,51.69921875,0,51.66015625,0.869793408,51.66015625,-4.79E-06,51.66015625,0.002248737,51.66015625,-5.03E-06
51.703125,0.00224198,51.703125,0,51.6640625,0.87087283,51.6640625,2.30E-06,51.6640625,0.002248294,51.6640625,2.45E-06
51.70703125,0.002242035,51.70703125,0,51.66796875,0.872112912,51.66796875,-1.02E-05,51.66796875,0.002247805,51.66796875,-1.08E-05
51.71191406,0.002242351,51.71191406,0,51.671875,0.87356003,51.671875,-8.83E-06,51.671875,0.002247064,51.671875,-9.03E-06
51.71582031,0.002243031,51.71582031,0,51.67578125,0.8751838,51.67578125,-3.09E-06,51.67578125,0.002246226,51.67578125,-3.29E-06
51.71972656,0.002244122,51.71972656,0,51.6796875,0.876871703,51.6796875,-9.88E-06,51.6796875,0.002245352,51.6796875,-9.90E-06
51.72363281,0.002245562,51.72363281,0,51.68359375,0.878497858,51.68359375,-1.17E-05,51.68359375,0.002244542,51.68359375,-1.24E-05
51.72753906,0.002247282,51.72753906,0,51.6875,0.879993912,51.6875,-2.56E-05,51.6875,0.002243809,51.6875,-2.74E-05
51.73144531,0.002249253,51.73144531,0,51.69140625,0.881367935,51.69140625,-5.04E-06,51.69140625,0.002243128,51.69140625,-5.29E-06
51.73535156,0.002251401,51.73535156,0,51.6953125,0.88260618,51.6953125,-5.26E-06,51.6953125,0.00224254,51.6953125,-5.69E-06
51.73925781,0.002253574,51.73925781,0,51.69921875,0.88361133,51.69921875,2.67E-06,51.69921875,0.002242145,51.69921875,2.83E-06
51.74316406,0.002255642,51.74316406,0,51.703125,0.884303388,51.703125,1.09E-05,51.703125,0.002241981,51.703125,1.16E-05
51.74707031,0.002257568,51.74707031,0,51.70703125,0.88467259,51.70703125,-6.29E-06,51.70703125,0.002242035,51.70703125,-6.70E-06
51.75195313,0.002259336,51.75195313,0,51.7109375,0.884745039,51.7109375,6.54E-06,51.7109375,0.002242288,51.7109375,7.00E-06
51.75585938,0.002260876,51.75585938,0,51.71484375,0.884478527,51.71484375,8.51E-06,51.71484375,0.002242861,51.71484375,8.98E-06
51.75976563,0.002262137,51.75976563,0,51.71875,0.883672716,51.71875,-9.29E-06,51.71875,0.002243849,51.71875,-9.83E-06
51.76367188,0.002263169,51.76367188,0,51.72265625,0.882348469,51.72265625,-1.07E-06,51.72265625,0.002245202,51.72265625,-1.13E-06
51.76757813,0.002264046,51.76757813,0,51.7265625,0.880596807,51.7265625,3.64E-06,51.7265625,0.002246852,51.7265625,3.83E-06
51.77148438,0.002264762,51.77148438,0,51.73046875,0.878501055,51.73046875,-2.33E-05,51.73046875,0.00224876,51.73046875,-2.48E-05
51.77539063,0.002265269,51.77539063,0,51.734375,0.876132086,51.734375,-2.21E-06,51.734375,0.002250864,51.734375,-2.34E-06
51.77929688,0.002265583,51.77929688,0,51.73828125,0.873640733,51.73828125,-1.96E-06,51.73828125,0.002253031,51.73828125,-2.08E-06
51.78320313,0.002265756,51.78320313,0,51.7421875,0.871217619,51.7421875,1.69E-05,51.7421875,0.002255125,51.7421875,1.77E-05
51.78710938,0.002265777,51.78710938,0,51.74609375,0.868994894,51.74609375,5.31E-06,51.74609375,0.002257087,51.74609375,5.55E-06
51.79199219,0.00226561,51.79199219,0,51.75,0.867201578,51.75,1.40E-05,51.75,0.002258629,51.75,1.49E-05
51.79589844,0.002265296,51.79589844,0,51.75390625,0.865817796,51.75390625,9.95E-06,51.75390625,0.002260106,51.75390625,1.06E-05
51.79980469,0.002264939,51.79980469,0,51.7578125,0.864483008,51.7578125,7.23E-06,51.7578125,0.002261506,51.7578125,7.65E-06
51.80371094,0.002264591,51.80371094,0,51.76171875,0.863477675,51.76171875,-2.98E-05,51.76171875,0.002262653,51.76171875,-3.12E-05
51.80761719,0.002264254,51.80761719,0,51.765625,0.862795074,51.765625,3.08E-07,51.765625,0.002263608,51.765625,3.99E-07
51.81152344,0.002263983,51.81152344,0,51.76953125,0.862360656,51.76953125,-1.40E-06,51.76953125,0.002264404,51.76953125,-1.42E-06
51.81542969,0.002263894,51.81542969,0,51.7734375,0.862173913,51.7734375,-1.10E-05,51.7734375,0.002265015,51.7734375,-1.17E-05
51.81933594,0.002264053,51.81933594,0,51.77734375,0.862266946,51.77734375,-2.67E-06,51.77734375,0.002265426,51.77734375,-2.83E-06
51.82324219,0.002264443,51.82324219,0,51.78125,0.862614466,51.78125,-5.93E-06,51.78125,0.002265669,51.78125,-6.34E-06
51.82714844,0.002265069,51.82714844,0,51.78515625,0.86316453,51.78515625,-2.40E-06,51.78515625,0.002265766,51.78515625,-2.52E-06
51.83105469,0.002265995,51.83105469,0,51.7890625,0.863913284,51.7890625,4.43E-06,51.7890625,0.00226571,51.7890625,4.70E-06
51.8359375,0.002267244,51.8359375,0,51.79296875,0.864832469,51.79296875,1.46E-06,51.79296875,0.002265531,51.79296875,1.56E-06
51.83984375,0.002268739,51.83984375,0,51.796875,0.865940574,51.796875,-5.09E-06,51.796875,0.002265207,51.796875,-5.47E-06
51.84375,0.002270396,51.84375,0,51.80078125,0.86712295,51.80078125,3.05E-06,51.80078125,0.002264852,51.80078125,3.25E-06
51.84765625,0.002272187,51.84765625,0,51.8046875,0.868290184,51.8046875,-1.32E-05,51.8046875,0.002264507,51.8046875,-1.39E-05
51.8515625,0.002274077,51.8515625,0,51.80859375,0.869415669,51.80859375,-2.82E-06,51.80859375,0.002264187,51.80859375,-3.00E-06
51.85546875,0.002275947,51.85546875,0,51.8125,0.870435591,51.8125,2.55E-05,51.8125,0.002263961,51.8125,2.74E-05
51.859375,0.002277673,51.859375,0,51.81640625,0.871217551,51.81640625,4.95E-06,51.81640625,0.002263934,51.81640625,5.24E-06
51.86328125,0.002279216,51.86328125,0,51.8203125,0.871668092,51.8203125,-1.25E-06,51.8203125,0.002264151,51.8203125,-1.33E-06
51.8671875,0.002280566,51.8671875,0,51.82421875,0.871784853,51.82421875,-3.94E-06,51.82421875,0.0022646,51.82421875,-4.14E-06
51.87109375,0.002281657,51.87109375,0,51.828125,0.871568025,51.828125,-4.83E-06,51.828125,0.0022653,51.828125,-5.07E-06
51.87597656,0.002282399,51.87597656,0,51.83203125,0.870978975,51.83203125,1.53E-05,51.83203125,0.002266245,51.83203125,1.62E-05
51.87988281,0.002282779,51.87988281,0,51.8359375,0.870229036,51.8359375,2.01E-06,51.8359375,0.002267245,51.8359375,2.12E-06
51.88378906,0.002282834,51.88378906,0,51.83984375,0.869063271,51.83984375,1.12E-05,51.83984375,0.00226874,51.83984375,1.19E-05
51.88769531,0.002282554,51.88769531,0,51.84375,0.867535722,51.84375,-1.11E-05,51.84375,0.002270396,51.84375,-1.17E-05
51.89160156,0.002281913,51.89160156,0,51.84765625,0.865818471,51.84765625,-1.38E-05,51.84765625,0.002272187,51.84765625,-1.45E-05
51.89550781,0.00228097,51.89550781,0,51.8515625,0.863978531,51.8515625,2.51E-05,51.8515625,0.002274077,51.8515625,2.66E-05
51.89941406,0.002279852,51.89941406,0,51.85546875,0.862133445,51.85546875,-7.43E-06,51.85546875,0.002275947,51.85546875,-7.97E-06
51.90332031,0.002278645,51.90332031,0,51.859375,0.860446912,51.859375,4.42E-06,51.859375,0.002277673,51.859375,4.78E-06
51.90722656,0.002277379,51.90722656,0,51.86328125,0.859019889,51.86328125,-2.73E-06,51.86328125,0.002279215,51.86328125,-3.16E-06
51.91113281,0.002276124,51.91113281,0,51.8671875,0.857883007,51.8671875,1.73E-05,51.8671875,0.002280565,51.8671875,1.82E-05
51.91503906,0.002275005,51.91503906,0,51.87109375,0.85709397,51.87109375,1.66E-05,51.87109375,0.002281645,51.87109375,1.78E-05
51.91992188,0.002274084,51.91992188,0,51.875,0.856863098,51.875,-1.24E-05,51.875,0.00228225,51.875,-1.31E-05
51.92382813,0.002273339,51.92382813,0,51.87890625,0.857023133,51.87890625,-1.66E-06,51.87890625,0.002282684,51.87890625,-1.76E-06
51.92773438,0.002272766,51.92773438,0,51.8828125,0.857542412,51.8828125,1.20E-05,51.8828125,0.00228282,51.8828125,1.28E-05
51.93164063,0.00227243,51.93164063,0,51.88671875,0.858494167,51.88671875,-6.27E-06,51.88671875,0.002282624,51.88671875,-6.55E-06
51.93554688,0.00227237,51.93554688,0,51.890625,0.859899771,51.890625,1.41E-05,51.890625,0.002282073,51.890625,1.50E-05
51.93945313,0.002272548,51.93945313,0,51.89453125,0.861740227,51.89453125,7.88E-06,51.89453125,0.002281205,51.89453125,8.33E-06
51.94335938,0.002272932,51.94335938,0,51.8984375,0.863896224,51.8984375,-7.49E-06,51.8984375,0.002280131,51.8984375,-7.97E-06
51.94726563,0.002273574,51.94726563,0,51.90234375,0.866224243,51.90234375,4.50E-06,51.90234375,0.002278947,51.90234375,4.71E-06
51.95117188,0.00227452,51.95117188,0,51.90625,0.868622206,51.90625,1.89E-05,51.90625,0.002277695,51.90625,1.99E-05
51.95507813,0.002275724,51.95507813,0,51.91015625,0.871021397,51.91015625,6.71E-07,51.91015625,0.002276438,51.91015625,7.05E-07
51.95996094,0.002277111,51.95996094,0,51.9140625,0.873293103,51.9140625,1.35E-05,51.9140625,0.002275285,51.9140625,1.42E-05
51.96386719,0.002278668,51.96386719,0,51.91796875,0.875215493,51.91796875,1.77E-06,51.91796875,0.002274452,51.91796875,1.76E-06
51.96777344,0.002280397,51.96777344,0,51.921875,0.876793288,51.921875,-3.58E-06,51.921875,0.002273712,51.921875,-3.76E-06
51.97167969,0.00228222,51.97167969,0,51.92578125,0.878250339,51.92578125,-3.09E-06,51.92578125,0.002273053,51.92578125,-3.25E-06
51.97558594,0.002284022,51.97558594,0,51.9296875,0.879454488,51.9296875,-3.69E-06,51.9296875,0.002272598,51.9296875,-3.95E-06
51.97949219,0.002285755,51.97949219,0,51.93359375,0.880314343,51.93359375,-1.02E-06,51.93359375,0.0022724,51.93359375,-1.08E-06
51.98339844,0.002287403,51.98339844,0,51.9375,0.880788807,51.9375,-5.78E-06,51.9375,0.002272459,51.9375,-6.08E-06
51.98730469,0.00228888,51.98730469,0,51.94140625,0.880922073,51.94140625,-3.99E-06,51.94140625,0.00227274,51.94140625,-4.29E-06
51.99121094,0.002290048,51.99121094,0,51.9453125,0.88074536,51.9453125,-2.79E-05,51.9453125,0.002273253,51.9453125,-2.92E-05
51.99511719,0.00229084,51.99511719,0,51.94921875,0.8802118,51.94921875,2.30E-06,51.94921875,0.002274047,51.94921875,2.46E-06
51.99902344,0.002291272,51.99902344,0,51.953125,0.879290646,51.953125,-6.37E-07,51.953125,0.002275122,51.953125,-6.77E-07
52.00390625,0.002291328,52.00390625,0,51.95703125,0.878114795,51.95703125,-1.82E-05,51.95703125,0.002276279,51.95703125,-1.85E-05
52.0078125,0.002290951,52.0078125,0,51.9609375,0.876962276,51.9609375,1.61E-05,51.9609375,0.0022775,51.9609375,1.72E-05
52.01171875,0.002290144,52.01171875,0,51.96484375,0.875404211,51.96484375,-5.69E-06,51.96484375,0.0022791,51.96484375,-6.02E-06
52.015625,0.002289008,52.015625,0,51.96875,0.873572046,51.96875,-3.20E-06,51.96875,0.002280853,51.96875,-3.25E-06
52.01953125,0.002287636,52.01953125,0,51.97265625,0.871622316,51.97265625,8.26E-06,51.97265625,0.002282671,51.97265625,8.71E-06
52.0234375,0.002286065,52.0234375,0,51.9765625,0.869702721,51.9765625,8.88E-07,51.9765625,0.002284456,51.9765625,9.50E-07
52.02734375,0.002284359,52.02734375,0,51.98046875,0.867903029,51.98046875,4.18E-05,51.98046875,0.002286167,51.98046875,4.39E-05
52.03125,0.002282651,52.03125,0,51.984375,0.866259918,51.984375,-1.23E-05,51.984375,0.002287773,51.984375,-1.29E-05
52.03515625,0.002281049,52.03515625,0,51.98828125,0.864869357,51.98828125,9.00E-06,51.98828125,0.002289172,51.98828125,9.54E-06
